
**** 05/29/18 22:46:13 *********** Evaluation PSpice (Nov 1999) **************

 * C:\Users\Antonio Jose\Documents\UPV\TCO\practicas\Schematic1.sch


 ****     CIRCUIT DESCRIPTION


******************************************************************************




* Schematics Version 9.1 - Web Update 1
* Tue May 29 22:33:52 2018



** Analysis setup **
.DC LIN V_V1 0 5 0.01 
.OP 


* From [PSPICE NETLIST] section of pspiceev.ini:
.lib "nom.lib"

.INC "Schematic1.net"

**** INCLUDING Schematic1.net ****
* Schematics Netlist *



V_V1         $N_0001 0 0V
M_M1         Vo $N_0001 0 0 MbreakN           
V_V2         $N_0002 0 5V
R_R1         Vo $N_0002  300k  

**** RESUMING Schematic1.cir ****
.INC "Schematic1.als"



**** INCLUDING Schematic1.als ****
* Schematics Aliases *

.ALIASES
V_V1            V1(+=$N_0001 -=0 )
M_M1            M1(d=Vo g=$N_0001 s=0 s=0 )
V_V2            V2(+=$N_0002 -=0 )
R_R1            R1(1=Vo 2=$N_0002 )
_    _(Vo=Vo)
.ENDALIASES


**** RESUMING Schematic1.cir ****
.probe


.END

**** 05/29/18 22:46:13 *********** Evaluation PSpice (Nov 1999) **************

 * C:\Users\Antonio Jose\Documents\UPV\TCO\practicas\Schematic1.sch


 ****     MOSFET MODEL PARAMETERS


******************************************************************************




               MbreakN         
               NMOS            
       LEVEL    1            
           L  100.000000E-06 
           W  100.000000E-06 
         VTO    0            
          KP   20.000000E-06 
       GAMMA    0            
         PHI     .6          
      LAMBDA    0            
          IS   10.000000E-15 
          JS    0            
          PB     .8          
        PBSW     .8          
          CJ    0            
        CJSW    0            
        CGSO    0            
        CGDO    0            
        CGBO    0            
         TOX    0            
          XJ    0            
       UCRIT   10.000000E+03 
      DIOMOD    1            
         VFB    0            
        LETA    0            
        WETA    0            
          U0    0            
        TEMP    0            
         VDD    0            
       XPART    0            


**** 05/29/18 22:46:13 *********** Evaluation PSpice (Nov 1999) **************

 * C:\Users\Antonio Jose\Documents\UPV\TCO\practicas\Schematic1.sch


 ****     SMALL SIGNAL BIAS SOLUTION       TEMPERATURE =   27.000 DEG C


******************************************************************************



 NODE   VOLTAGE     NODE   VOLTAGE     NODE   VOLTAGE     NODE   VOLTAGE


(   Vo)    5.0000  ($N_0001)    0.0000                   ($N_0002)    5.0000    




    VOLTAGE SOURCE CURRENTS
    NAME         CURRENT

    V_V1         0.000E+00
    V_V2        -5.010E-12

    TOTAL POWER DISSIPATION   2.51E-11  WATTS


**** 05/29/18 22:46:13 *********** Evaluation PSpice (Nov 1999) **************

 * C:\Users\Antonio Jose\Documents\UPV\TCO\practicas\Schematic1.sch


 ****     OPERATING POINT INFORMATION      TEMPERATURE =   27.000 DEG C


******************************************************************************






**** MOSFETS


NAME         M_M1      
MODEL        MbreakN   
ID           5.01E-12 
VGS          0.00E+00 
VDS          5.00E+00 
VBS          0.00E+00 
VTH          0.00E+00 
VDSAT        0.00E+00 
Lin0/Sat1   -1.00E+00 
if          -1.00E+00 
ir          -1.00E+00 
TAU         -1.00E+00 
GM           0.00E+00 
GDS          0.00E+00 
GMB          0.00E+00 
CBD          0.00E+00 
CBS          0.00E+00 
CGSOV        0.00E+00 
CGDOV        0.00E+00 
CGBOV        0.00E+00 
CGS          0.00E+00 
CGD          0.00E+00 
CGB          0.00E+00 

          JOB CONCLUDED

          TOTAL JOB TIME             .09
